Circuit: ** ISIM 5 - circuit **

Direct Newton iteration for .op point skipped.
Gmin stepping method for .op point skipped.
Starting source stepping with srcstepmethod=0
Source Step = 3.0303%
Source Step = 33.3333%
Source Step = 63.6364%
Source Step = 93.9394%
Source stepping succeeded in finding the operating point.

Semiconductor Device Operating Points:
                        --- Diodes ---
Name:    d:u2:p      d:u2:ln     d:u2:lp     d:u2:e      d:u2:c
Model:    u2:dx       u2:dx       u2:dx       u2:dx       u2:dx
Id:     -1.70e-11   -2.50e-11   -2.50e-11   -8.37e-12   -4.23e-12
Vd:     -1.70e+01   -2.50e+01   -2.50e+01   -8.37e+00   -4.23e+00
Req:     1.00e+12    1.00e+12    1.00e+12    1.00e+12    1.00e+12
CAP:     0.00e+00    0.00e+00    0.00e+00    0.00e+00    0.00e+00

Name:    d:u4:p      d:u4:ln     d:u4:lp     d:u4:e      d:u4:c
Model:    u4:dx       u4:dx       u4:dx       u4:dx       u4:dx
Id:     -1.70e-11   -2.50e-11   -2.50e-11   -1.32e-11    2.51e-05
Vd:     -1.70e+01   -2.50e+01   -2.50e+01   -1.32e+01    6.25e-01
Req:     1.00e+12    1.00e+12    1.00e+12    1.00e+12    1.03e+03
CAP:     0.00e+00    0.00e+00    0.00e+00    0.00e+00    0.00e+00

Name:   d:dut:bd
Model:   dut:dbd
Id:     -5.00e-12
Vd:     -4.99e+00
Req:     1.00e+12
CAP:     5.88e-12

                        --- Bipolar Transistors ---
Name:          qq2                qq11                 qq3
Model:  qbd135__bjt_npn__1 qbd135__bjt_npn__1 q2n3906/on__bjt_pnp__1
Ib:          2.02e-06           3.95e-06             7.79e-10
Ic:          2.55e-04           4.88e-04            -7.77e-10
Vbe:         5.73e-01           5.90e-01             5.90e-01
Vbc:        -6.43e+00          -1.57e+00             1.04e+01
Vce:         7.01e+00           2.16e+00            -9.84e+00
BetaDC:      1.26e+02           1.23e+02            -9.97e-01
Gm:          9.96e-03           1.91e-02             1.26e-17
Rpi:         1.27e+04           6.49e+03             1.00e+12
Rx:          5.00e-01           5.00e-01             6.49e+00
Ro:          8.89e+05           4.55e+05             4.11e+20
Cbe:         2.18e-10           2.32e-10             4.88e-12
Cbc:         1.01e-11           1.70e-11             2.46e-12
Cjs:         0.00e+00           0.00e+00             0.00e+00
BetaAC:      1.26e+02           1.24e+02             1.26e-05
Cbx:         0.00e+00           0.00e+00             2.73e-13
Ft:          6.95e+06           1.22e+07             2.09e-02

                        --- JFET Transistors ---
Name:    j:u2:2      j:u2:1      j:u4:2      j:u4:1
Model:    u2:jx       u2:jx       u4:jx       u4:jx
Id:     -9.82e-05   -9.82e-05   -8.37e-05   -1.10e-04
Vgs:     3.97e-01    3.97e-01    4.43e-01    3.61e-01
Vds:    -6.75e+00   -6.75e+00   -9.26e+00   -9.17e+00
Gm:      3.26e-04    3.26e-04    3.01e-04    3.45e-04
Gds:     0.00e+00    0.00e+00    0.00e+00    0.00e+00
Cgs:     0.00e+00    0.00e+00    0.00e+00    0.00e+00
Cgd:     0.00e+00    0.00e+00    0.00e+00    0.00e+00

                        --- MOSFET Transistors ---
Name:        m:dut:1
Model:      dut:mint
Id:         -9.99e-12
Vgs:         4.84e+00
Vds:        -4.99e+00
Vbs:         0.00e+00
Vth:        -1.34e+00
Vdsat:      -1.38e-01
Gm:          6.57e-20
Gds:         1.70e-21
Gmb:         0.00e+00
Cbd:         0.00e+00
Cbs:         0.00e+00
Cgsov:       0.00e+00
Cgdov:       0.00e+00
Cgbov:       0.00e+00
Cgs:         0.00e+00
Cgd:         0.00e+00
Cgb:         3.45e-12



Date: Tue May 23 17:24:27 2023
Total elapsed time: 0.032 seconds.

tnom = 27
temp = 27
method = trap
totiter = 135
traniter = 0
tranpoints = 0
accept = 0
rejected = 0
matrix size = 138
fillins = 238
solver = Normal

