Circuit: ** ISIM 5 - circuit **

Instance "m:dut:2": Length shorter than recommended for a level 1 MOSFET.
Direct Newton iteration for .op point skipped.
Gmin stepping method for .op point skipped.
Starting source stepping with srcstepmethod=0
Source Step = 3.0303%
Source Step = 33.3333%
Source Step = 63.6364%
Source Step = 93.9394%
Source stepping succeeded in finding the operating point.

Semiconductor Device Operating Points:
                        --- Diodes ---
Name:    d:u2:p      d:u2:ln     d:u2:lp     d:u2:e      d:u2:c
Model:    u2:dx       u2:dx       u2:dx       u2:dx       u2:dx
Id:     -1.70e-11   -2.97e-11   -2.03e-11   -1.32e-11    6.02e-05
Vd:     -1.70e+01   -2.97e+01   -2.03e+01   -1.32e+01    6.48e-01
Req:     1.00e+12    1.00e+12    1.00e+12    1.00e+12    4.30e+02
CAP:     0.00e+00    0.00e+00    0.00e+00    0.00e+00    0.00e+00

Name:    d:u4:p      d:u4:ln     d:u4:lp     d:u4:e      d:u4:c
Model:    u4:dx       u4:dx       u4:dx       u4:dx       u4:dx
Id:     -1.70e-11   -2.50e-11   -2.50e-11   -8.38e-12   -4.22e-12
Vd:     -1.70e+01   -2.50e+01   -2.50e+01   -8.38e+00   -4.22e+00
Req:     1.00e+12    1.00e+12    1.00e+12    1.00e+12    1.00e+12
CAP:     0.00e+00    0.00e+00    0.00e+00    0.00e+00    0.00e+00

Name:    d:dut:1
Model:  dut:dbody
Id:     -5.10e-12
Vd:     -4.98e+00
Req:     1.00e+12
CAP:     1.98e-11

                        --- Bipolar Transistors ---
Name:          qq2                qq11                 qq3
Model:  qbd135__bjt_npn__1 qbd135__bjt_npn__1 q2n3906/on__bjt_pnp__1
Ib:          4.62e-03           1.97e-06             7.75e-10
Ic:          4.47e-01           2.48e-04            -7.72e-10
Vbe:         8.48e-01           5.72e-01             5.72e-01
Vbc:        -1.55e+00          -6.42e+00             5.58e+00
Vce:         2.40e+00           6.99e+00            -5.01e+00
BetaDC:      9.67e+01           1.26e+02            -9.97e-01
Gm:          1.43e+01           9.70e-03             2.04e-17
Rpi:         5.54e+00           1.30e+04             1.00e+12
Rx:          5.00e-01           5.00e-01             6.49e+00
Ro:          4.95e+02           9.13e+05             2.47e+20
Cbe:         2.17e-08           2.17e-10             4.91e-12
Cbc:         1.72e-11           1.01e-11             2.90e-12
Cjs:         0.00e+00           0.00e+00             0.00e+00
BetaAC:      7.93e+01           1.26e+02             2.04e-05
Cbx:         0.00e+00           0.00e+00             3.22e-13
Ft:          1.05e+08           6.79e+06             1.96e-02

                        --- JFET Transistors ---
Name:    j:u2:2      j:u2:1      j:u4:2      j:u4:1
Model:    u2:jx       u2:jx       u4:jx       u4:jx
Id:     -6.51e-05   -1.29e-04   -9.82e-05   -9.82e-05
Vgs:     5.09e-01    3.09e-01    3.97e-01    3.97e-01
Vds:    -9.26e+00   -9.04e+00   -6.76e+00   -6.76e+00
Gm:      2.65e-04    3.73e-04    3.26e-04    3.26e-04
Gds:     0.00e+00    0.00e+00    0.00e+00    0.00e+00
Cgs:     0.00e+00    0.00e+00    0.00e+00    0.00e+00
Cgd:     0.00e+00    0.00e+00    0.00e+00    0.00e+00

                        --- MOSFET Transistors ---
Name:        m:dut:2     m:dut:1
Model:      dut:most2   dut:most1
Id:          3.12e-16    4.51e-01
Vgs:         2.27e-02    5.00e+00
Vds:        -1.06e-11    4.98e+00
Vbs:        -4.98e+00    0.00e+00
Vth:        -4.73e+00    2.00e+00
Vdsat:       4.75e+00    2.99e+00
Gm:          1.05e-12    3.02e-01
Gds:         4.79e-01    0.00e+00
Gmb:         0.00e+00    0.00e+00
Cbd:         0.00e+00    0.00e+00
Cbs:         0.00e+00    0.00e+00
Cgsov:       0.00e+00    0.00e+00
Cgdov:       0.00e+00    0.00e+00
Cgbov:       0.00e+00    0.00e+00
Cgs:         0.00e+00    4.47e-12
Cgd:         0.00e+00    0.00e+00
Cgb:         0.00e+00    0.00e+00



Date: Tue May 23 16:28:45 2023
Total elapsed time: 0.031 seconds.

tnom = 27
temp = 27
method = trap
totiter = 138
traniter = 0
tranpoints = 0
accept = 0
rejected = 0
matrix size = 127
fillins = 250
solver = Normal

