Title: ** ISIM 5 - circuit **
Date: Mon May 22 23:41:01 2023
Plotname: Operating Point
Flags: real
No. Variables: 26
No. Points:            1
Offset:   0.0000000000000000e+000
Command: Linear Technology Corporation LTspice XVII
Variables:
	0	V(vdac0)	voltage
	1	V(collector)	voltage
	2	V(base)	voltage
	3	V(emitter)	voltage
	4	V(vdac1)	voltage
	5	V(cres10)	voltage
	6	V(cres1k)	voltage
	7	V(cres10div)	voltage
	8	V(cres1kdiv)	voltage
	9	V(collectordiv)	voltage
	10	V(bres100div)	voltage
	11	V(basediv)	voltage
	12	V(dac0mult)	voltage
	13	V(emitterdiv)	voltage
	14	V(dac0multtocollectorwire)	voltage
	15	V(dac0multtoemitterwire)	voltage
	16	V(cresexhaust)	voltage
	17	V(collectorlevelpreselect)	voltage
	18	Ie(Qq2)	device_current
	19	I(Rrb100)	device_current
	20	I(Rrc1k)	device_current
	21	I(Rrc10e)	device_current
	22	I(Rrc10d)	device_current
	23	I(Rrc10c)	device_current
	24	I(Rrc10b)	device_current
	25	I(Rrc10a)	device_current
Values:
0		2.279609300000000e+000
	4.771879260218669e-001
	1.256184637780150e+000
	4.389305670607116e-003
	2.622710600000000e+000
	4.547310002191718e+000
	4.812070073161696e-001
	1.136941109830884e+000
	1.204255453086351e-001
	1.194207850514828e-001
	1.311479207433477e+000
	3.141680118708523e-001
	4.559281123437176e+000
	1.222314162426735e-003
	4.555290720950682e+000
	2.281835214553891e+000
	4.551300318464189e+000
	9.551309678738028e-008
	-3.992704901723903e-001
	3.989284749423378e-002
	4.019081294302673e-006
	7.980631521901670e-002
	7.980631521901670e-002
	7.980631521901670e-002
	7.980631521901670e-002
	7.980631521901670e-002
