Circuit: ** ISIM 5 - circuit **

Direct Newton iteration for .op point skipped.
Gmin stepping method for .op point skipped.
Starting source stepping with srcstepmethod=0
Source Step = 3.0303%
Source Step = 33.3333%
Source Step = 63.6364%
Source Step = 93.9394%
Source stepping succeeded in finding the operating point.

Semiconductor Device Operating Points:
                        --- Diodes ---
Name:    d:u2:p      d:u2:ln     d:u2:lp     d:u2:e      d:u2:c
Model:    u2:dx       u2:dx       u2:dx       u2:dx       u2:dx
Id:     -1.70e-11   -2.89e-11   -2.11e-11   -8.19e-12   -4.41e-12
Vd:     -1.70e+01   -2.89e+01   -2.11e+01   -8.19e+00   -4.41e+00
Req:     1.00e+12    1.00e+12    1.00e+12    1.00e+12    1.00e+12
CAP:     0.00e+00    0.00e+00    0.00e+00    0.00e+00    0.00e+00

Name:    d:u4:p      d:u4:ln     d:u4:lp     d:u4:e      d:u4:c
Model:    u4:dx       u4:dx       u4:dx       u4:dx       u4:dx
Id:     -1.70e-11   -2.53e-11   -2.47e-11   -8.76e-12   -3.85e-12
Vd:     -1.70e+01   -2.53e+01   -2.47e+01   -8.75e+00   -3.85e+00
Req:     1.00e+12    1.00e+12    1.00e+12    1.00e+12    1.00e+12
CAP:     0.00e+00    0.00e+00    0.00e+00    0.00e+00    0.00e+00

                        --- Bipolar Transistors ---
Name:          qq2                qq11                 qq3                  qdut
Model:  qbd135__bjt_npn__1 qbd135__bjt_npn__1 q2n3906/on__bjt_pnp__1 2n3415__bjt_npn__1
Ib:          3.88e-03           3.23e-04             7.75e-10             3.99e-02
Ic:          3.95e-01           3.98e-02            -7.73e-10             3.99e-01
Vbe:         8.34e-01           7.09e-01             7.09e-01             1.25e+00
Vbc:        -6.61e+00          -6.05e+00             5.95e+00             7.79e-01
Vce:         7.44e+00           6.75e+00            -5.25e+00             4.73e-01
BetaDC:      1.02e+02           1.23e+02            -9.97e-01             1.00e+01
Gm:          1.29e+01           1.52e+00             4.14e-19             9.20e+00
Rpi:         6.60e+00           7.93e+01             1.00e+12             3.86e+00
Rx:          5.00e-01           5.00e-01             6.49e+00             1.00e+01
Ro:          5.73e+02           5.68e+03             1.24e+22             9.66e-01
Cbe:         1.10e-08           1.35e-09             4.75e-12             4.27e-08
Cbc:         1.00e-11           1.04e-11             2.85e-12             3.98e-09
Cjs:         0.00e+00           0.00e+00             0.00e+00             0.00e+00
BetaAC:      8.53e+01           1.20e+02             4.14e-07             3.55e+01
Cbx:         0.00e+00           0.00e+00             3.17e-13             0.00e+00
Ft:          1.87e+08           1.77e+08             2.01e-02             3.13e+07

                        --- JFET Transistors ---
Name:    j:u2:2      j:u2:1      j:u4:2      j:u4:1
Model:    u2:jx       u2:jx       u4:jx       u4:jx
Id:     -9.83e-05   -9.83e-05   -9.81e-05   -9.81e-05
Vgs:     3.97e-01    3.97e-01    3.97e-01    3.97e-01
Vds:    -6.54e+00   -6.54e+00   -6.88e+00   -6.88e+00
Gm:      3.26e-04    3.26e-04    3.26e-04    3.26e-04
Gds:     0.00e+00    0.00e+00    0.00e+00    0.00e+00
Cgs:     0.00e+00    0.00e+00    0.00e+00    0.00e+00
Cgd:     0.00e+00    0.00e+00    0.00e+00    0.00e+00



Date: Mon May 22 23:41:02 2023
Total elapsed time: 0.030 seconds.

tnom = 27
temp = 27
method = trap
totiter = 142
traniter = 0
tranpoints = 0
accept = 0
rejected = 0
matrix size = 124
fillins = 222
solver = Normal

